
T0E50 000:404 SEGGER J-Link V4.80g Log File (0001ms, 0282ms total)
T0E50 000:404 DLL Compiled: Feb 13 2014 20:50:02 (0001ms, 0282ms total)
T0E50 000:404 Logging started @ 2014-09-22 16:36 (0001ms, 0282ms total)
T0E50 000:405 JLINK_SetWarnOutHandler(...) (0000ms, 0282ms total)
T0E50 000:405 JLINK_OpenEx(...)
Firmware: J-Link ARM V8 compiled Nov 25 2013 19:20:08
Hardware: V8.00
S/N: 12345678
Feature(s): RDI,FlashDL,FlashBP,JFlash,GDBFull  returns O.K. (0273ms, 0555ms total)
T0E50 000:678 JLINK_SetErrorOutHandler(...) (0000ms, 0555ms total)
T0E50 000:678 JLINK_ExecCommand("ProjectFile = "D:\Keil Projects\FreeRTOS\Example\STemWin_Example\FreeRTOS\keil\JLinkSettings.ini"", ...)  returns 0x00 (0001ms, 0556ms total)
T0E50 000:679 JLINK_ExecCommand("Device = STM32F439ZI", ...)Device "STM32F439ZI" selected (2048 KB flash, 192 KB RAM).  returns 0x00 (0011ms, 0567ms total)
T0E50 000:690 JLINK_ExecCommand("DisableConnectionTimeout", ...)  returns 0x01 (0000ms, 0567ms total)
T0E50 000:690 JLINK_GetHardwareVersion()  returns 0x13880 (0000ms, 0567ms total)
T0E50 000:690 JLINK_GetDLLVersion()  returns 48007 (0000ms, 0567ms total)
T0E50 000:690 JLINK_GetFirmwareString(...) (0000ms, 0567ms total)
T0E50 000:691 JLINK_GetDLLVersion()  returns 48007 (0000ms, 0567ms total)
T0E50 000:691 JLINK_GetCompileDateTime() (0000ms, 0567ms total)
T0E50 000:691 JLINK_GetFirmwareString(...) (0000ms, 0567ms total)
T0E50 000:691 JLINK_GetHardwareVersion()  returns 0x13880 (0000ms, 0567ms total)
T0E50 000:694 JLINK_TIF_Select(JLINKARM_TIF_SWD)  returns 0x00 (0004ms, 0571ms total)
T0E50 000:698 JLINK_SetSpeed(500) (0001ms, 0572ms total)
T0E50 000:699 JLINK_GetId() >0x108 TIF>Found SWD-DP with ID 0x2BA01477 >0x0D TIF> >0x28 TIF> >0x0D TIF> >0x28 TIF> >0x0D TIF> >0x21 TIF> >0x0D TIF> >0x28 TIF> >0x0D TIF> >0x28 TIF> >0x0D TIF> >0x28 TIF> >0x0D TIF> >0x21 TIF> >0x0D TIF> >0x21 TIF> >0x0D TIF> >0x28 TIF> >0x0D TIF> >0x21 TIF> >0x0D TIF> >0x21 TIF> >0x0D TIF> >0x28 TIF> >0x0D TIF> >0x21 TIF> >0x0D TIF> >0x21 TIF> >0x108 TIF>Found SWD-DP with ID 0x2BA01477 >0x0D TIF> >0x21 TIF> >0x0D TIF> >0x28 TIF> >0x0D TIF> >0x28 TIF> >0x0D TIF> >0x21 TIF>
 >0x0D TIF> >0x28 TIF> >0x0D TIF> >0x21 TIF> >0x0D TIF> >0x21 TIF> >0x0D TIF> >0x21 TIF> >0x0D TIF> >0x21 TIF> >0x0D TIF> >0x28 TIF> >0x0D TIF> >0x28 TIF> >0x0D TIF> >0x21 TIF> >0x0D TIF> >0x28 TIF> >0x0D TIF> >0x28 TIF> >0x0D TIF> >0x28 TIF> >0x0D TIF> >0x21 TIF> >0x0D TIF> >0x21 TIF> >0x0D TIF> >0x28 TIF> >0x0D TIF> >0x21 TIF> >0x0D TIF> >0x21 TIF>Found Cortex-M4 r0p1, Little endian. -- CPU_WriteMem(4 bytes @ 0xE0002000) -- CPU_ReadMem(4 bytes @ 0xE000EDF0) -- CPU_ReadMem(4 bytes @ 0xE0002000)
FPUnit: 6 code (BP) slots and 2 literal slots -- CPU_ReadMem(4 bytes @ 0xE000EDFC) -- CPU_ReadMem(4 bytes @ 0xE0001000) -- CPU_WriteMem(4 bytes @ 0xE0001000) -- CPU_ReadMem(4 bytes @ 0xE00FF010)TPIU fitted. -- CPU_ReadMem(4 bytes @ 0xE00FF014)ETM fitted. -- CPU_ReadMem(4 bytes @ 0xE00FF018) >0x0D TIF> >0x21 TIF>  returns 0x2BA01477 (0096ms, 0668ms total)
T0E50 000:795 JLINK_GetDeviceFamily()  returns 14 (0000ms, 0668ms total)
T0E50 000:795 JLINK_ReadMem (0xE00FFFF0, 0x0010 Bytes, ...) -- CPU is running -- CPU_ReadMem(16 bytes @ 0xE00FFFF0) -- Data:  0D 00 00 00 10 00 00 00 05 00 00 00 B1 00 00 00  returns 0x00 (0002ms, 0670ms total)
T0E50 000:797 JLINK_ReadMem (0xE00FFFD0, 0x0020 Bytes, ...) -- CPU is running -- CPU_ReadMem(32 bytes @ 0xE00FFFD0) -- Data:  00 00 00 00 00 00 00 00 00 00 00 00 00 00 00 00 ...  returns 0x00 (0002ms, 0672ms total)
T0E50 000:799 JLINK_ReadMem (0xE00FF000, 0x0018 Bytes, ...) -- CPU is running -- CPU_ReadMem(24 bytes @ 0xE00FF000) -- Data:  03 F0 F0 FF 03 20 F0 FF 03 30 F0 FF 03 10 F0 FF ...  returns 0x00 (0002ms, 0674ms total)
T0E50 000:801 JLINK_ReadMemU32(0xE000ED00, 0x0001 Items, ...) -- CPU is running -- CPU_ReadMem(4 bytes @ 0xE000ED00) -- Data:  41 C2 0F 41  returns 0x01 (0002ms, 0676ms total)
T0E50 000:803 JLINK_ReadMemU32(0xE000EF40, 0x0001 Items, ...) -- CPU is running -- CPU_ReadMem(4 bytes @ 0xE000EF40) -- Data:  21 00 11 10  returns 0x01 (0002ms, 0678ms total)
T0E50 000:805 JLINK_ReadMemU32(0xE000EF44, 0x0001 Items, ...) -- CPU is running -- CPU_ReadMem(4 bytes @ 0xE000EF44) -- Data:  11 00 00 11  returns 0x01 (0002ms, 0680ms total)
T0E50 000:807 JLINK_SetResetType(JLINKARM_RESET_TYPE_NORMAL)  returns JLINKARM_RESET_TYPE_NORMAL (0000ms, 0680ms total)
T0E50 000:807 JLINK_Reset() -- CPU is running -- CPU_WriteMem(4 bytes @ 0xE000EDF0) -- CPU is running -- CPU_WriteMem(4 bytes @ 0xE000EDFC) >0x35 TIF> -- CPU is running -- CPU_WriteMem(4 bytes @ 0xE000ED0C) -- CPU is running -- CPU_ReadMem(4 bytes @ 0xE000EDF0) -- CPU is running -- CPU_ReadMem(4 bytes @ 0xE000EDF0) -- CPU is running -- CPU_WriteMem(4 bytes @ 0xE000EDF0) -- CPU is running -- CPU_WriteMem(4 bytes @ 0xE000EDFC) -- CPU is running -- CPU_ReadMem(4 bytes @ 0xE000EDF0)
 -- CPU_WriteMem(4 bytes @ 0xE0002000) -- CPU_ReadMem(4 bytes @ 0xE000EDFC) -- CPU_ReadMem(4 bytes @ 0xE0001000) (0038ms, 0718ms total)
T0E50 000:845 JLINK_ReadReg(R15 (PC))  returns 0x080002FC (0000ms, 0718ms total)
T0E50 000:845 JLINK_ReadReg(XPSR)  returns 0x01000000 (0000ms, 0718ms total)
T0E50 000:845 JLINK_Halt()  returns 0x00 (0000ms, 0718ms total)
T0E50 000:845 JLINK_IsHalted()  returns TRUE (0000ms, 0718ms total)
T0E50 000:845 JLINK_ReadMemU32(0xE000EDF0, 0x0001 Items, ...) -- CPU_ReadMem(4 bytes @ 0xE000EDF0) -- Data:  03 00 03 00  returns 0x01 (0002ms, 0720ms total)
T0E50 000:847 JLINK_WriteU32(0xE000EDF0, 0xA05F0003) -- CPU_WriteMem(4 bytes @ 0xE000EDF0)  returns 0x00 (0002ms, 0722ms total)
T0E50 000:849 JLINK_WriteU32(0xE000EDFC, 0x01000000) -- CPU_WriteMem(4 bytes @ 0xE000EDFC)  returns 0x00 (0002ms, 0724ms total)
T0E50 000:852 JLINK_GetHWStatus(...)  returns 0x00 (0001ms, 0725ms total)
T0E50 000:853 JLINK_GetNumBPUnits(Type = 0xFFFFFF00)  returns 0x06 (0000ms, 0725ms total)
T0E50 000:853 JLINK_GetNumBPUnits(Type = 0xF0)  returns 0x2000 (0000ms, 0725ms total)
T0E50 000:853 JLINK_GetNumWPUnits()  returns 0x04 (0000ms, 0725ms total)
T0E50 000:854 JLINK_GetSpeed()  returns 0x1F4 (0000ms, 0725ms total)
T0E50 000:854 JLINK_ReadMemU32(0xE000E004, 0x0001 Items, ...) -- CPU_ReadMem(4 bytes @ 0xE000E004) -- Data:  02 00 00 00  returns 0x01 (0002ms, 0727ms total)
T0E50 000:856 JLINK_ReadMemU32(0xE000E004, 0x0001 Items, ...) -- CPU_ReadMem(4 bytes @ 0xE000E004) -- Data:  02 00 00 00  returns 0x01 (0002ms, 0729ms total)
T0E50 000:858 JLINK_WriteMem(0xE0001000, 0x001C Bytes, ...) -- Data:  01 00 00 00 00 00 00 00 00 00 00 00 00 00 00 00 ... -- CPU_WriteMem(28 bytes @ 0xE0001000)  returns 0x1C (0002ms, 0731ms total)
T0E50 000:860 JLINK_ReadMem (0xE0001000, 0x001C Bytes, ...) -- CPU_ReadMem(28 bytes @ 0xE0001000) -- Data:  01 00 00 40 00 00 00 00 00 00 00 00 00 00 00 00 ...  returns 0x00 (0002ms, 0733ms total)
T0E50 000:862 JLINK_ReadReg(R15 (PC))  returns 0x080002FC (0000ms, 0733ms total)
T0E50 000:862 JLINK_ReadReg(XPSR)  returns 0x01000000 (0000ms, 0733ms total)
T0E50 000:917 JLINK_ReadMem (0x08000000, 0x1000 Bytes, ...) -- CPU_ReadMem(4096 bytes @ 0x08000000) -- Updating C cache (4096 bytes @ 0x08000000) -- Read from C cache (4096 bytes @ 0x08000000) -- Data:  58 B5 00 20 FD 02 00 08 05 03 00 08 07 03 00 08 ...  returns 0x00 (0112ms, 0845ms total)
T0E50 001:031 JLINK_ReadMem (0x08001000, 0x1000 Bytes, ...) -- CPU_ReadMem(4096 bytes @ 0x08001000) -- Updating C cache (4096 bytes @ 0x08001000) -- Read from C cache (4096 bytes @ 0x08001000) -- Data:  00 38 02 40 40 38 02 40 00 70 00 40 04 38 02 40 ...  returns 0x00 (0112ms, 0957ms total)
T0E50 001:145 JLINK_ReadMem (0x08002000, 0x03F4 Bytes, ...) -- CPU_ReadMem(1024 bytes @ 0x08002000) -- Updating C cache (1024 bytes @ 0x08002000) -- Read from C cache (1012 bytes @ 0x08002000) -- Data:  88 42 00 D9 28 61 00 EB 80 01 08 EB 81 00 21 1D ...  returns 0x00 (0028ms, 0985ms total)
T0E50 001:228 JLINK_SetResetType(JLINKARM_RESET_TYPE_NORMAL)  returns JLINKARM_RESET_TYPE_NORMAL (0000ms, 0985ms total)
T0E50 001:228 JLINK_Reset() -- CPU_WriteMem(4 bytes @ 0xE000EDF0) -- CPU_WriteMem(4 bytes @ 0xE000EDFC) >0x35 TIF> -- CPU_WriteMem(4 bytes @ 0xE000ED0C) -- CPU_ReadMem(4 bytes @ 0xE000EDF0) -- CPU_ReadMem(4 bytes @ 0xE000EDF0) -- CPU_WriteMem(4 bytes @ 0xE000EDF0) -- CPU_WriteMem(4 bytes @ 0xE000EDFC) -- CPU is running -- CPU_ReadMem(4 bytes @ 0xE000EDF0) -- CPU_WriteMem(4 bytes @ 0xE0002000) -- CPU_ReadMem(4 bytes @ 0xE000EDFC) -- CPU_ReadMem(4 bytes @ 0xE0001000) (0039ms, 1024ms total)
T0E50 001:267 JLINK_ReadReg(R15 (PC))  returns 0x080002FC (0000ms, 1024ms total)
T0E50 001:267 JLINK_ReadReg(XPSR)  returns 0x01000000 (0000ms, 1024ms total)
T0E50 001:288 JLINK_ReadMem (0x080002FC, 0x003C Bytes, ...) -- CPU_ReadMem(128 bytes @ 0x080002C0) -- Updating C cache (128 bytes @ 0x080002C0) -- Read from C cache (60 bytes @ 0x080002FC) -- Data:  09 48 80 47 09 48 00 47 FE E7 FE E7 FE E7 FE E7 ...  returns 0x00 (0005ms, 1029ms total)
T0E50 001:786 JLINK_ReadMem (0x40013C00, 0x0014 Bytes, ...) -- CPU_ReadMem(20 bytes @ 0x40013C00) -- Data:  00 00 00 00 00 00 00 00 00 00 00 00 00 00 00 00 ...  returns 0x00 (0002ms, 1031ms total)
T0E50 001:788 JLINK_ReadMem (0x40013C14, 0x0004 Bytes, ...) -- CPU_ReadMem(4 bytes @ 0x40013C14) -- Data:  00 00 00 00  returns 0x00 (0002ms, 1033ms total)
T0E50 002:924 JLINK_ReadMemU32(0xE0001004, 0x0001 Items, ...) -- CPU_ReadMem(4 bytes @ 0xE0001004) -- Data:  90 21 00 00  returns 0x01 (0003ms, 1036ms total)
T0E50 002:927 JLINK_ReadMem (0x40013C00, 0x0014 Bytes, ...) -- CPU_ReadMem(20 bytes @ 0x40013C00) -- Data:  00 00 00 00 00 00 00 00 00 00 00 00 00 00 00 00 ...  returns 0x00 (0002ms, 1038ms total)
T0E50 002:929 JLINK_ReadMem (0x40013C14, 0x0004 Bytes, ...) -- CPU_ReadMem(4 bytes @ 0x40013C14) -- Data:  00 00 00 00  returns 0x00 (0002ms, 1040ms total)
T0BC0 009:628 JLINK_Go() -- CPU_WriteMem(4 bytes @ 0xE0001004) (0007ms, 1047ms total)
T0BC0 009:735 JLINK_IsHalted()  returns FALSE (0001ms, 1048ms total)
T0BC0 009:836 JLINK_IsHalted()  returns FALSE (0001ms, 1048ms total)
T0BC0 009:937 JLINK_IsHalted()  returns FALSE (0001ms, 1048ms total)
T0BC0 010:038 JLINK_IsHalted()  returns FALSE (0001ms, 1048ms total)
T0BC0 010:139 JLINK_IsHalted()  returns FALSE (0001ms, 1048ms total)
T0BC0 010:240 JLINK_ReadMemU32(0xE0001004, 0x0001 Items, ...) -- CPU is running -- CPU_ReadMem(4 bytes @ 0xE0001004) -- Data:  00 87 10 06  returns 0x01 (0001ms, 1048ms total)
T0E50 010:241 JLINK_ReadMem (0x40013C00, 0x0014 Bytes, ...) -- CPU is running -- CPU_ReadMem(20 bytes @ 0x40013C00) -- Data:  02 00 00 00 00 00 00 00 02 00 00 00 00 00 00 00 ...  returns 0x00 (0003ms, 1051ms total)
T0E50 010:244 JLINK_ReadMem (0x40013C14, 0x0004 Bytes, ...) -- CPU is running -- CPU_ReadMem(4 bytes @ 0x40013C14) -- Data:  00 00 00 00  returns 0x00 (0002ms, 1053ms total)
T0E50 010:246 JLINK_ReadMem (0x40013C00, 0x0004 Bytes, ...) -- CPU is running -- CPU_ReadMem(4 bytes @ 0x40013C00) -- Data:  02 00 00 00  returns 0x00 (0002ms, 1055ms total)
T0E50 010:248 JLINK_ReadMem (0x40013C00, 0x0004 Bytes, ...) -- CPU is running -- CPU_ReadMem(4 bytes @ 0x40013C00) -- Data:  02 00 00 00  returns 0x00 (0002ms, 1057ms total)
T0E50 010:250 JLINK_ReadMem (0x40013C00, 0x0004 Bytes, ...) -- CPU is running -- CPU_ReadMem(4 bytes @ 0x40013C00) -- Data:  02 00 00 00  returns 0x00 (0002ms, 1059ms total)
T0E50 010:252 JLINK_ReadMem (0x40013C00, 0x0004 Bytes, ...) -- CPU is running -- CPU_ReadMem(4 bytes @ 0x40013C00) -- Data:  02 00 00 00  returns 0x00 (0002ms, 1061ms total)
T0E50 010:254 JLINK_ReadMem (0x40013C00, 0x0004 Bytes, ...) -- CPU is running -- CPU_ReadMem(4 bytes @ 0x40013C00) -- Data:  02 00 00 00  returns 0x00 (0002ms, 1063ms total)
T0E50 010:256 JLINK_ReadMem (0x40013C00, 0x0004 Bytes, ...) -- CPU is running -- CPU_ReadMem(4 bytes @ 0x40013C00) -- Data:  02 00 00 00  returns 0x00 (0002ms, 1065ms total)
T0E50 010:258 JLINK_ReadMem (0x40013C00, 0x0004 Bytes, ...) -- CPU is running -- CPU_ReadMem(4 bytes @ 0x40013C00) -- Data:  02 00 00 00  returns 0x00 (0002ms, 1067ms total)
T0E50 010:260 JLINK_ReadMem (0x40013C00, 0x0004 Bytes, ...) -- CPU is running -- CPU_ReadMem(4 bytes @ 0x40013C00) -- Data:  02 00 00 00  returns 0x00 (0002ms, 1069ms total)
T0E50 010:262 JLINK_ReadMem (0x40013C00, 0x0004 Bytes, ...) -- CPU is running -- CPU_ReadMem(4 bytes @ 0x40013C00) -- Data:  02 00 00 00  returns 0x00 (0002ms, 1071ms total)
T0E50 010:264 JLINK_ReadMem (0x40013C00, 0x0004 Bytes, ...) -- CPU is running -- CPU_ReadMem(4 bytes @ 0x40013C00) -- Data:  02 00 00 00  returns 0x00 (0002ms, 1073ms total)
T0E50 010:266 JLINK_ReadMem (0x40013C00, 0x0004 Bytes, ...) -- CPU is running -- CPU_ReadMem(4 bytes @ 0x40013C00) -- Data:  02 00 00 00  returns 0x00 (0002ms, 1075ms total)
T0E50 010:268 JLINK_ReadMem (0x40013C00, 0x0004 Bytes, ...) -- CPU is running -- CPU_ReadMem(4 bytes @ 0x40013C00) -- Data:  02 00 00 00  returns 0x00 (0002ms, 1077ms total)
T0E50 010:270 JLINK_ReadMem (0x40013C00, 0x0004 Bytes, ...) -- CPU is running -- CPU_ReadMem(4 bytes @ 0x40013C00) -- Data:  02 00 00 00  returns 0x00 (0002ms, 1079ms total)
T0E50 010:272 JLINK_ReadMem (0x40013C00, 0x0004 Bytes, ...) -- CPU is running -- CPU_ReadMem(4 bytes @ 0x40013C00) -- Data:  02 00 00 00  returns 0x00 (0002ms, 1081ms total)
T0E50 010:274 JLINK_ReadMem (0x40013C00, 0x0004 Bytes, ...) -- CPU is running -- CPU_ReadMem(4 bytes @ 0x40013C00) -- Data:  02 00 00 00  returns 0x00 (0002ms, 1083ms total)
T0E50 010:276 JLINK_ReadMem (0x40013C00, 0x0004 Bytes, ...) -- CPU is running -- CPU_ReadMem(4 bytes @ 0x40013C00) -- Data:  02 00 00 00  returns 0x00 (0002ms, 1085ms total)
T0E50 010:278 JLINK_ReadMem (0x40013C00, 0x0004 Bytes, ...) -- CPU is running -- CPU_ReadMem(4 bytes @ 0x40013C00) -- Data:  02 00 00 00  returns 0x00 (0002ms, 1087ms total)
T0E50 010:280 JLINK_ReadMem (0x40013C00, 0x0004 Bytes, ...) -- CPU is running -- CPU_ReadMem(4 bytes @ 0x40013C00) -- Data:  02 00 00 00  returns 0x00 (0002ms, 1089ms total)
T0E50 010:282 JLINK_ReadMem (0x40013C00, 0x0004 Bytes, ...) -- CPU is running -- CPU_ReadMem(4 bytes @ 0x40013C00) -- Data:  02 00 00 00  returns 0x00 (0002ms, 1091ms total)
T0E50 010:284 JLINK_ReadMem (0x40013C00, 0x0004 Bytes, ...) -- CPU is running -- CPU_ReadMem(4 bytes @ 0x40013C00) -- Data:  02 00 00 00  returns 0x00 (0002ms, 1093ms total)
T0E50 010:286 JLINK_ReadMem (0x40013C00, 0x0004 Bytes, ...) -- CPU is running -- CPU_ReadMem(4 bytes @ 0x40013C00) -- Data:  02 00 00 00  returns 0x00 (0002ms, 1095ms total)
T0E50 010:288 JLINK_ReadMem (0x40013C00, 0x0004 Bytes, ...) -- CPU is running -- CPU_ReadMem(4 bytes @ 0x40013C00) -- Data:  02 00 00 00  returns 0x00 (0002ms, 1097ms total)
T0E50 010:290 JLINK_ReadMem (0x40013C00, 0x0004 Bytes, ...) -- CPU is running -- CPU_ReadMem(4 bytes @ 0x40013C00) -- Data:  02 00 00 00  returns 0x00 (0002ms, 1099ms total)
T0E50 010:292 JLINK_ReadMem (0x40013C00, 0x0004 Bytes, ...) -- CPU is running -- CPU_ReadMem(4 bytes @ 0x40013C00) -- Data:  02 00 00 00  returns 0x00 (0002ms, 1101ms total)
T0E50 010:303 JLINK_ReadMem (0x40013C08, 0x0004 Bytes, ...) -- CPU is running -- CPU_ReadMem(4 bytes @ 0x40013C08) -- Data:  02 00 00 00  returns 0x00 (0002ms, 1103ms total)
T0E50 010:305 JLINK_ReadMem (0x40013C08, 0x0004 Bytes, ...) -- CPU is running -- CPU_ReadMem(4 bytes @ 0x40013C08) -- Data:  02 00 00 00  returns 0x00 (0002ms, 1105ms total)
T0E50 010:307 JLINK_ReadMem (0x40013C08, 0x0004 Bytes, ...) -- CPU is running -- CPU_ReadMem(4 bytes @ 0x40013C08) -- Data:  02 00 00 00  returns 0x00 (0002ms, 1107ms total)
T0E50 010:309 JLINK_ReadMem (0x40013C08, 0x0004 Bytes, ...) -- CPU is running -- CPU_ReadMem(4 bytes @ 0x40013C08) -- Data:  02 00 00 00  returns 0x00 (0002ms, 1109ms total)
T0E50 010:311 JLINK_ReadMem (0x40013C08, 0x0004 Bytes, ...) -- CPU is running -- CPU_ReadMem(4 bytes @ 0x40013C08) -- Data:  02 00 00 00  returns 0x00 (0002ms, 1111ms total)
T0E50 010:313 JLINK_ReadMem (0x40013C08, 0x0004 Bytes, ...) -- CPU is running -- CPU_ReadMem(4 bytes @ 0x40013C08) -- Data:  02 00 00 00  returns 0x00 (0002ms, 1113ms total)
T0E50 010:315 JLINK_ReadMem (0x40013C08, 0x0004 Bytes, ...) -- CPU is running -- CPU_ReadMem(4 bytes @ 0x40013C08) -- Data:  02 00 00 00  returns 0x00 (0002ms, 1115ms total)
T0E50 010:317 JLINK_ReadMem (0x40013C08, 0x0004 Bytes, ...) -- CPU is running -- CPU_ReadMem(4 bytes @ 0x40013C08) -- Data:  02 00 00 00  returns 0x00 (0002ms, 1117ms total)
T0E50 010:319 JLINK_ReadMem (0x40013C08, 0x0004 Bytes, ...) -- CPU is running -- CPU_ReadMem(4 bytes @ 0x40013C08) -- Data:  02 00 00 00  returns 0x00 (0002ms, 1119ms total)
T0E50 010:321 JLINK_ReadMem (0x40013C08, 0x0004 Bytes, ...) -- CPU is running -- CPU_ReadMem(4 bytes @ 0x40013C08) -- Data:  02 00 00 00  returns 0x00 (0002ms, 1121ms total)
T0E50 010:323 JLINK_ReadMem (0x40013C08, 0x0004 Bytes, ...) -- CPU is running -- CPU_ReadMem(4 bytes @ 0x40013C08) -- Data:  02 00 00 00  returns 0x00 (0002ms, 1123ms total)
T0E50 010:325 JLINK_ReadMem (0x40013C08, 0x0004 Bytes, ...) -- CPU is running -- CPU_ReadMem(4 bytes @ 0x40013C08) -- Data:  02 00 00 00  returns 0x00 (0002ms, 1125ms total)
T0E50 010:327 JLINK_ReadMem (0x40013C08, 0x0004 Bytes, ...) -- CPU is running -- CPU_ReadMem(4 bytes @ 0x40013C08) -- Data:  02 00 00 00  returns 0x00 (0002ms, 1127ms total)
T0E50 010:329 JLINK_ReadMem (0x40013C08, 0x0004 Bytes, ...) -- CPU is running -- CPU_ReadMem(4 bytes @ 0x40013C08) -- Data:  02 00 00 00  returns 0x00 (0002ms, 1129ms total)
T0E50 010:331 JLINK_ReadMem (0x40013C08, 0x0004 Bytes, ...) -- CPU is running -- CPU_ReadMem(4 bytes @ 0x40013C08) -- Data:  02 00 00 00  returns 0x00 (0002ms, 1131ms total)
T0E50 010:333 JLINK_ReadMem (0x40013C08, 0x0004 Bytes, ...) -- CPU is running -- CPU_ReadMem(4 bytes @ 0x40013C08) -- Data:  02 00 00 00  returns 0x00 (0002ms, 1133ms total)
T0E50 010:335 JLINK_ReadMem (0x40013C08, 0x0004 Bytes, ...) -- CPU is running -- CPU_ReadMem(4 bytes @ 0x40013C08) -- Data:  02 00 00 00  returns 0x00 (0002ms, 1135ms total)
T0E50 010:337 JLINK_ReadMem (0x40013C08, 0x0004 Bytes, ...) -- CPU is running -- CPU_ReadMem(4 bytes @ 0x40013C08) -- Data:  02 00 00 00  returns 0x00 (0002ms, 1137ms total)
T0E50 010:339 JLINK_ReadMem (0x40013C08, 0x0004 Bytes, ...) -- CPU is running -- CPU_ReadMem(4 bytes @ 0x40013C08) -- Data:  02 00 00 00  returns 0x00 (0002ms, 1139ms total)
T0E50 010:341 JLINK_ReadMem (0x40013C08, 0x0004 Bytes, ...) -- CPU is running -- CPU_ReadMem(4 bytes @ 0x40013C08) -- Data:  02 00 00 00  returns 0x00 (0002ms, 1141ms total)
T0E50 010:343 JLINK_ReadMem (0x40013C08, 0x0004 Bytes, ...) -- CPU is running -- CPU_ReadMem(4 bytes @ 0x40013C08) -- Data:  02 00 00 00  returns 0x00 (0002ms, 1143ms total)
T0E50 010:345 JLINK_ReadMem (0x40013C08, 0x0004 Bytes, ...) -- CPU is running -- CPU_ReadMem(4 bytes @ 0x40013C08) -- Data:  02 00 00 00  returns 0x00 (0002ms, 1145ms total)
T0E50 010:347 JLINK_ReadMem (0x40013C08, 0x0004 Bytes, ...) -- CPU is running -- CPU_ReadMem(4 bytes @ 0x40013C08) -- Data:  02 00 00 00  returns 0x00 (0002ms, 1147ms total)
T0E50 010:349 JLINK_ReadMem (0x40013C08, 0x0004 Bytes, ...) -- CPU is running -- CPU_ReadMem(4 bytes @ 0x40013C08) -- Data:  02 00 00 00  returns 0x00 (0002ms, 1149ms total)
T0BC0 010:359 JLINK_IsHalted()  returns FALSE (0001ms, 1150ms total)
T0BC0 010:460 JLINK_IsHalted()  returns FALSE (0001ms, 1150ms total)
T0BC0 010:561 JLINK_IsHalted()  returns FALSE (0001ms, 1150ms total)
T0BC0 010:662 JLINK_IsHalted()  returns FALSE (0001ms, 1150ms total)
T0BC0 010:763 JLINK_ReadMemU32(0xE0001004, 0x0001 Items, ...) -- CPU is running -- CPU_ReadMem(4 bytes @ 0xE0001004) -- Data:  0A 6A 4D 0B  returns 0x01 (0001ms, 1150ms total)
T0E50 010:764 JLINK_ReadMem (0x40013C00, 0x0014 Bytes, ...) -- CPU is running -- CPU_ReadMem(20 bytes @ 0x40013C00) -- Data:  02 00 00 00 00 00 00 00 02 00 00 00 00 00 00 00 ...  returns 0x00 (0002ms, 1152ms total)
T0E50 010:766 JLINK_ReadMem (0x40013C14, 0x0004 Bytes, ...) -- CPU is running -- CPU_ReadMem(4 bytes @ 0x40013C14) -- Data:  00 00 00 00  returns 0x00 (0002ms, 1154ms total)
T0BC0 010:769 JLINK_IsHalted()  returns FALSE (0002ms, 1156ms total)
T0BC0 010:871 JLINK_IsHalted()  returns FALSE (0001ms, 1155ms total)
T0BC0 010:972 JLINK_IsHalted()  returns FALSE (0001ms, 1155ms total)
T0BC0 011:073 JLINK_IsHalted()  returns FALSE (0001ms, 1155ms total)
T0BC0 011:174 JLINK_IsHalted()  returns FALSE (0001ms, 1155ms total)
T0BC0 011:275 JLINK_ReadMemU32(0xE0001004, 0x0001 Items, ...) -- CPU is running -- CPU_ReadMem(4 bytes @ 0xE0001004) -- Data:  3E 11 6E 10  returns 0x01 (0001ms, 1155ms total)
T0E50 011:276 JLINK_ReadMem (0x40013C00, 0x0014 Bytes, ...) -- CPU is running -- CPU_ReadMem(20 bytes @ 0x40013C00) -- Data:  02 00 00 00 00 00 00 00 02 00 00 00 00 00 00 00 ...  returns 0x00 (0003ms, 1158ms total)
T0E50 011:279 JLINK_ReadMem (0x40013C14, 0x0004 Bytes, ...) -- CPU is running -- CPU_ReadMem(4 bytes @ 0x40013C14) -- Data:  00 00 00 00  returns 0x00 (0002ms, 1160ms total)
T0BC0 011:282 JLINK_IsHalted()  returns FALSE (0001ms, 1161ms total)
T0BC0 011:383 JLINK_IsHalted()  returns FALSE (0001ms, 1161ms total)
T0BC0 011:484 JLINK_IsHalted()  returns FALSE (0001ms, 1161ms total)
T0BC0 011:585 JLINK_IsHalted()  returns FALSE (0001ms, 1161ms total)
T0BC0 011:686 JLINK_IsHalted()  returns FALSE (0001ms, 1161ms total)
T0BC0 011:787 JLINK_ReadMemU32(0xE0001004, 0x0001 Items, ...) -- CPU is running -- CPU_ReadMem(4 bytes @ 0xE0001004) -- Data:  61 08 90 15  returns 0x01 (0002ms, 1162ms total)
T0E50 011:789 JLINK_ReadMem (0x40013C00, 0x0014 Bytes, ...) -- CPU is running -- CPU_ReadMem(20 bytes @ 0x40013C00) -- Data:  00 00 00 00 00 00 00 00 02 00 00 00 00 00 00 00 ...  returns 0x00 (0002ms, 1164ms total)
T0E50 011:791 JLINK_ReadMem (0x40013C14, 0x0004 Bytes, ...) -- CPU is running -- CPU_ReadMem(4 bytes @ 0x40013C14) -- Data:  00 00 00 00  returns 0x00 (0002ms, 1166ms total)
T0E50 011:793 JLINK_ReadMem (0x40013C00, 0x0004 Bytes, ...) -- CPU is running -- CPU_ReadMem(4 bytes @ 0x40013C00) -- Data:  00 00 00 00  returns 0x00 (0002ms, 1168ms total)
T0E50 011:795 JLINK_ReadMem (0x40013C00, 0x0004 Bytes, ...) -- CPU is running -- CPU_ReadMem(4 bytes @ 0x40013C00) -- Data:  00 00 00 00  returns 0x00 (0002ms, 1170ms total)
T0E50 011:797 JLINK_ReadMem (0x40013C00, 0x0004 Bytes, ...) -- CPU is running -- CPU_ReadMem(4 bytes @ 0x40013C00) -- Data:  00 00 00 00  returns 0x00 (0002ms, 1172ms total)
T0E50 011:799 JLINK_ReadMem (0x40013C00, 0x0004 Bytes, ...) -- CPU is running -- CPU_ReadMem(4 bytes @ 0x40013C00) -- Data:  00 00 00 00  returns 0x00 (0002ms, 1174ms total)
T0E50 011:801 JLINK_ReadMem (0x40013C00, 0x0004 Bytes, ...) -- CPU is running -- CPU_ReadMem(4 bytes @ 0x40013C00) -- Data:  00 00 00 00  returns 0x00 (0002ms, 1176ms total)
T0E50 011:803 JLINK_ReadMem (0x40013C00, 0x0004 Bytes, ...) -- CPU is running -- CPU_ReadMem(4 bytes @ 0x40013C00) -- Data:  00 00 00 00  returns 0x00 (0002ms, 1178ms total)
T0E50 011:805 JLINK_ReadMem (0x40013C00, 0x0004 Bytes, ...) -- CPU is running -- CPU_ReadMem(4 bytes @ 0x40013C00) -- Data:  00 00 00 00  returns 0x00 (0002ms, 1180ms total)
T0E50 011:807 JLINK_ReadMem (0x40013C00, 0x0004 Bytes, ...) -- CPU is running -- CPU_ReadMem(4 bytes @ 0x40013C00) -- Data:  00 00 00 00  returns 0x00 (0002ms, 1182ms total)
T0E50 011:809 JLINK_ReadMem (0x40013C00, 0x0004 Bytes, ...) -- CPU is running -- CPU_ReadMem(4 bytes @ 0x40013C00) -- Data:  00 00 00 00  returns 0x00 (0002ms, 1184ms total)
T0E50 011:811 JLINK_ReadMem (0x40013C00, 0x0004 Bytes, ...) -- CPU is running -- CPU_ReadMem(4 bytes @ 0x40013C00) -- Data:  00 00 00 00  returns 0x00 (0002ms, 1186ms total)
T0E50 011:813 JLINK_ReadMem (0x40013C00, 0x0004 Bytes, ...) -- CPU is running -- CPU_ReadMem(4 bytes @ 0x40013C00) -- Data:  00 00 00 00  returns 0x00 (0002ms, 1188ms total)
T0E50 011:815 JLINK_ReadMem (0x40013C00, 0x0004 Bytes, ...) -- CPU is running -- CPU_ReadMem(4 bytes @ 0x40013C00) -- Data:  00 00 00 00  returns 0x00 (0002ms, 1190ms total)
T0E50 011:817 JLINK_ReadMem (0x40013C00, 0x0004 Bytes, ...) -- CPU is running -- CPU_ReadMem(4 bytes @ 0x40013C00) -- Data:  00 00 00 00  returns 0x00 (0002ms, 1192ms total)
T0E50 011:819 JLINK_ReadMem (0x40013C00, 0x0004 Bytes, ...) -- CPU is running -- CPU_ReadMem(4 bytes @ 0x40013C00) -- Data:  00 00 00 00  returns 0x00 (0002ms, 1194ms total)
T0E50 011:821 JLINK_ReadMem (0x40013C00, 0x0004 Bytes, ...) -- CPU is running -- CPU_ReadMem(4 bytes @ 0x40013C00) -- Data:  00 00 00 00  returns 0x00 (0002ms, 1196ms total)
T0E50 011:823 JLINK_ReadMem (0x40013C00, 0x0004 Bytes, ...) -- CPU is running -- CPU_ReadMem(4 bytes @ 0x40013C00) -- Data:  00 00 00 00  returns 0x00 (0002ms, 1198ms total)
T0E50 011:825 JLINK_ReadMem (0x40013C00, 0x0004 Bytes, ...) -- CPU is running -- CPU_ReadMem(4 bytes @ 0x40013C00) -- Data:  00 00 00 00  returns 0x00 (0002ms, 1200ms total)
T0E50 011:827 JLINK_ReadMem (0x40013C00, 0x0004 Bytes, ...) -- CPU is running -- CPU_ReadMem(4 bytes @ 0x40013C00) -- Data:  00 00 00 00  returns 0x00 (0002ms, 1202ms total)
T0E50 011:829 JLINK_ReadMem (0x40013C00, 0x0004 Bytes, ...) -- CPU is running -- CPU_ReadMem(4 bytes @ 0x40013C00) -- Data:  00 00 00 00  returns 0x00 (0002ms, 1204ms total)
T0E50 011:831 JLINK_ReadMem (0x40013C00, 0x0004 Bytes, ...) -- CPU is running -- CPU_ReadMem(4 bytes @ 0x40013C00) -- Data:  00 00 00 00  returns 0x00 (0002ms, 1206ms total)
T0E50 011:833 JLINK_ReadMem (0x40013C00, 0x0004 Bytes, ...) -- CPU is running -- CPU_ReadMem(4 bytes @ 0x40013C00) -- Data:  00 00 00 00  returns 0x00 (0003ms, 1209ms total)
T0E50 011:836 JLINK_ReadMem (0x40013C00, 0x0004 Bytes, ...) -- CPU is running -- CPU_ReadMem(4 bytes @ 0x40013C00) -- Data:  00 00 00 00  returns 0x00 (0005ms, 1214ms total)
T0E50 011:841 JLINK_ReadMem (0x40013C00, 0x0004 Bytes, ...) -- CPU is running -- CPU_ReadMem(4 bytes @ 0x40013C00) -- Data:  00 00 00 00  returns 0x00 (0002ms, 1216ms total)
T0E50 011:843 JLINK_ReadMem (0x40013C00, 0x0004 Bytes, ...) -- CPU is running -- CPU_ReadMem(4 bytes @ 0x40013C00) -- Data:  00 00 00 00  returns 0x00 (0002ms, 1218ms total)
T0BC0 011:877 JLINK_IsHalted()  returns FALSE (0002ms, 1220ms total)
T0BC0 011:980 JLINK_IsHalted()  returns FALSE (0001ms, 1219ms total)
T0BC0 012:081 JLINK_IsHalted()  returns FALSE (0001ms, 1219ms total)
T0BC0 012:182 JLINK_IsHalted()  returns FALSE (0001ms, 1219ms total)
T0BC0 012:283 JLINK_IsHalted()  returns FALSE (0001ms, 1219ms total)
T0BC0 012:384 JLINK_ReadMemU32(0xE0001004, 0x0001 Items, ...) -- CPU is running -- CPU_ReadMem(4 bytes @ 0xE0001004) -- Data:  14 5A 8A 1B  returns 0x01 (0002ms, 1220ms total)
T0E50 012:386 JLINK_ReadMem (0x40013C00, 0x0014 Bytes, ...) -- CPU is running -- CPU_ReadMem(20 bytes @ 0x40013C00) -- Data:  00 00 00 00 00 00 00 00 02 00 00 00 00 00 00 00 ...  returns 0x00 (0003ms, 1223ms total)
T0E50 012:389 JLINK_ReadMem (0x40013C14, 0x0004 Bytes, ...) -- CPU is running -- CPU_ReadMem(4 bytes @ 0x40013C14) -- Data:  00 00 00 00  returns 0x00 (0002ms, 1225ms total)
T0BC0 012:392 JLINK_IsHalted()  returns FALSE (0001ms, 1226ms total)
T0BC0 012:493 JLINK_IsHalted()  returns FALSE (0001ms, 1226ms total)
T0BC0 012:594 JLINK_IsHalted()  returns FALSE (0001ms, 1226ms total)
T0BC0 012:695 JLINK_IsHalted()  returns FALSE (0001ms, 1226ms total)
T0BC0 012:796 JLINK_IsHalted()  returns FALSE (0001ms, 1226ms total)
T0BC0 012:897 JLINK_ReadMemU32(0xE0001004, 0x0001 Items, ...) -- CPU is running -- CPU_ReadMem(4 bytes @ 0xE0001004) -- Data:  CB CA AD 20  returns 0x01 (0002ms, 1227ms total)
T0E50 012:899 JLINK_ReadMem (0x40013C00, 0x0014 Bytes, ...) -- CPU is running -- CPU_ReadMem(20 bytes @ 0x40013C00) -- Data:  02 00 00 00 00 00 00 00 02 00 00 00 00 00 00 00 ...  returns 0x00 (0003ms, 1230ms total)
T0E50 012:902 JLINK_ReadMem (0x40013C14, 0x0004 Bytes, ...) -- CPU is running -- CPU_ReadMem(4 bytes @ 0x40013C14) -- Data:  00 00 00 00  returns 0x00 (0002ms, 1232ms total)
T0E50 012:904 JLINK_ReadMem (0x40013C00, 0x0004 Bytes, ...) -- CPU is running -- CPU_ReadMem(4 bytes @ 0x40013C00) -- Data:  02 00 00 00  returns 0x00 (0002ms, 1234ms total)
T0E50 012:906 JLINK_ReadMem (0x40013C00, 0x0004 Bytes, ...) -- CPU is running -- CPU_ReadMem(4 bytes @ 0x40013C00) -- Data:  02 00 00 00  returns 0x00 (0002ms, 1236ms total)
T0E50 012:908 JLINK_ReadMem (0x40013C00, 0x0004 Bytes, ...) -- CPU is running -- CPU_ReadMem(4 bytes @ 0x40013C00) -- Data:  02 00 00 00  returns 0x00 (0059ms, 1295ms total)
T0E50 012:967 JLINK_ReadMem (0x40013C00, 0x0004 Bytes, ...) -- CPU is running -- CPU_ReadMem(4 bytes @ 0x40013C00) -- Data:  02 00 00 00  returns 0x00 (0001ms, 1296ms total)
T0E50 012:968 JLINK_ReadMem (0x40013C00, 0x0004 Bytes, ...) -- CPU is running -- CPU_ReadMem(4 bytes @ 0x40013C00) -- Data:  02 00 00 00  returns 0x00 (0002ms, 1298ms total)
T0E50 012:970 JLINK_ReadMem (0x40013C00, 0x0004 Bytes, ...) -- CPU is running -- CPU_ReadMem(4 bytes @ 0x40013C00) -- Data:  02 00 00 00  returns 0x00 (0002ms, 1300ms total)
T0E50 012:972 JLINK_ReadMem (0x40013C00, 0x0004 Bytes, ...) -- CPU is running -- CPU_ReadMem(4 bytes @ 0x40013C00) -- Data:  02 00 00 00  returns 0x00 (0002ms, 1302ms total)
T0E50 012:974 JLINK_ReadMem (0x40013C00, 0x0004 Bytes, ...) -- CPU is running -- CPU_ReadMem(4 bytes @ 0x40013C00) -- Data:  02 00 00 00  returns 0x00 (0002ms, 1304ms total)
T0E50 012:976 JLINK_ReadMem (0x40013C00, 0x0004 Bytes, ...) -- CPU is running -- CPU_ReadMem(4 bytes @ 0x40013C00) -- Data:  02 00 00 00  returns 0x00 (0002ms, 1306ms total)
T0E50 012:978 JLINK_ReadMem (0x40013C00, 0x0004 Bytes, ...) -- CPU is running -- CPU_ReadMem(4 bytes @ 0x40013C00) -- Data:  02 00 00 00  returns 0x00 (0002ms, 1308ms total)
T0E50 012:980 JLINK_ReadMem (0x40013C00, 0x0004 Bytes, ...) -- CPU is running -- CPU_ReadMem(4 bytes @ 0x40013C00) -- Data:  02 00 00 00  returns 0x00 (0002ms, 1310ms total)
T0E50 012:982 JLINK_ReadMem (0x40013C00, 0x0004 Bytes, ...) -- CPU is running -- CPU_ReadMem(4 bytes @ 0x40013C00) -- Data:  02 00 00 00  returns 0x00 (0002ms, 1312ms total)
T0E50 012:984 JLINK_ReadMem (0x40013C00, 0x0004 Bytes, ...) -- CPU is running -- CPU_ReadMem(4 bytes @ 0x40013C00) -- Data:  02 00 00 00  returns 0x00 (0002ms, 1314ms total)
T0E50 012:986 JLINK_ReadMem (0x40013C00, 0x0004 Bytes, ...) -- CPU is running -- CPU_ReadMem(4 bytes @ 0x40013C00) -- Data:  02 00 00 00  returns 0x00 (0002ms, 1316ms total)
T0E50 012:988 JLINK_ReadMem (0x40013C00, 0x0004 Bytes, ...) -- CPU is running -- CPU_ReadMem(4 bytes @ 0x40013C00) -- Data:  02 00 00 00  returns 0x00 (0002ms, 1318ms total)
T0E50 012:990 JLINK_ReadMem (0x40013C00, 0x0004 Bytes, ...) -- CPU is running -- CPU_ReadMem(4 bytes @ 0x40013C00) -- Data:  02 00 00 00  returns 0x00 (0002ms, 1320ms total)
T0E50 012:992 JLINK_ReadMem (0x40013C00, 0x0004 Bytes, ...) -- CPU is running -- CPU_ReadMem(4 bytes @ 0x40013C00) -- Data:  02 00 00 00  returns 0x00 (0002ms, 1322ms total)
T0E50 012:994 JLINK_ReadMem (0x40013C00, 0x0004 Bytes, ...) -- CPU is running -- CPU_ReadMem(4 bytes @ 0x40013C00) -- Data:  02 00 00 00  returns 0x00 (0002ms, 1324ms total)
T0E50 012:996 JLINK_ReadMem (0x40013C00, 0x0004 Bytes, ...) -- CPU is running -- CPU_ReadMem(4 bytes @ 0x40013C00) -- Data:  02 00 00 00  returns 0x00 (0002ms, 1326ms total)
T0E50 012:998 JLINK_ReadMem (0x40013C00, 0x0004 Bytes, ...) -- CPU is running -- CPU_ReadMem(4 bytes @ 0x40013C00) -- Data:  02 00 00 00  returns 0x00 (0002ms, 1328ms total)
T0E50 013:000 JLINK_ReadMem (0x40013C00, 0x0004 Bytes, ...) -- CPU is running -- CPU_ReadMem(4 bytes @ 0x40013C00) -- Data:  02 00 00 00  returns 0x00 (0002ms, 1330ms total)
T0E50 013:002 JLINK_ReadMem (0x40013C00, 0x0004 Bytes, ...) -- CPU is running -- CPU_ReadMem(4 bytes @ 0x40013C00) -- Data:  02 00 00 00  returns 0x00 (0002ms, 1332ms total)
T0E50 013:004 JLINK_ReadMem (0x40013C00, 0x0004 Bytes, ...) -- CPU is running -- CPU_ReadMem(4 bytes @ 0x40013C00) -- Data:  02 00 00 00  returns 0x00 (0002ms, 1334ms total)
T0E50 013:006 JLINK_ReadMem (0x40013C00, 0x0004 Bytes, ...) -- CPU is running -- CPU_ReadMem(4 bytes @ 0x40013C00) -- Data:  02 00 00 00  returns 0x00 (0002ms, 1336ms total)
T0BC0 013:017 JLINK_IsHalted()  returns FALSE (0001ms, 1337ms total)
T0BC0 013:118 JLINK_IsHalted()  returns FALSE (0002ms, 1338ms total)
T0BC0 013:220 JLINK_IsHalted()  returns FALSE (0002ms, 1338ms total)
T0BC0 013:322 JLINK_IsHalted()  returns FALSE (0001ms, 1337ms total)
T0BC0 013:423 JLINK_ReadMemU32(0xE0001004, 0x0001 Items, ...) -- CPU is running -- CPU_ReadMem(4 bytes @ 0xE0001004) -- Data:  4E BF F0 25  returns 0x01 (0001ms, 1337ms total)
T0E50 013:424 JLINK_ReadMem (0x40013C00, 0x0014 Bytes, ...) -- CPU is running -- CPU_ReadMem(20 bytes @ 0x40013C00) -- Data:  00 00 00 00 00 00 00 00 02 00 00 00 00 00 00 00 ...  returns 0x00 (0002ms, 1339ms total)
T0E50 013:426 JLINK_ReadMem (0x40013C14, 0x0004 Bytes, ...) -- CPU is running -- CPU_ReadMem(4 bytes @ 0x40013C14) -- Data:  00 00 00 00  returns 0x00 (0002ms, 1341ms total)
T0E50 013:428 JLINK_ReadMem (0x40013C00, 0x0004 Bytes, ...) -- CPU is running -- CPU_ReadMem(4 bytes @ 0x40013C00) -- Data:  00 00 00 00  returns 0x00 (0002ms, 1343ms total)
T0E50 013:430 JLINK_ReadMem (0x40013C00, 0x0004 Bytes, ...) -- CPU is running -- CPU_ReadMem(4 bytes @ 0x40013C00) -- Data:  00 00 00 00  returns 0x00 (0002ms, 1345ms total)
T0E50 013:432 JLINK_ReadMem (0x40013C00, 0x0004 Bytes, ...) -- CPU is running -- CPU_ReadMem(4 bytes @ 0x40013C00) -- Data:  00 00 00 00  returns 0x00 (0002ms, 1347ms total)
T0E50 013:434 JLINK_ReadMem (0x40013C00, 0x0004 Bytes, ...) -- CPU is running -- CPU_ReadMem(4 bytes @ 0x40013C00) -- Data:  00 00 00 00  returns 0x00 (0002ms, 1349ms total)
T0E50 013:436 JLINK_ReadMem (0x40013C00, 0x0004 Bytes, ...) -- CPU is running -- CPU_ReadMem(4 bytes @ 0x40013C00) -- Data:  00 00 00 00  returns 0x00 (0002ms, 1351ms total)
T0E50 013:438 JLINK_ReadMem (0x40013C00, 0x0004 Bytes, ...) -- CPU is running -- CPU_ReadMem(4 bytes @ 0x40013C00) -- Data:  00 00 00 00  returns 0x00 (0002ms, 1353ms total)
T0E50 013:440 JLINK_ReadMem (0x40013C00, 0x0004 Bytes, ...) -- CPU is running -- CPU_ReadMem(4 bytes @ 0x40013C00) -- Data:  00 00 00 00  returns 0x00 (0002ms, 1355ms total)
T0E50 013:442 JLINK_ReadMem (0x40013C00, 0x0004 Bytes, ...) -- CPU is running -- CPU_ReadMem(4 bytes @ 0x40013C00) -- Data:  00 00 00 00  returns 0x00 (0002ms, 1357ms total)
T0E50 013:444 JLINK_ReadMem (0x40013C00, 0x0004 Bytes, ...) -- CPU is running -- CPU_ReadMem(4 bytes @ 0x40013C00) -- Data:  00 00 00 00  returns 0x00 (0002ms, 1359ms total)
T0E50 013:446 JLINK_ReadMem (0x40013C00, 0x0004 Bytes, ...) -- CPU is running -- CPU_ReadMem(4 bytes @ 0x40013C00) -- Data:  00 00 00 00  returns 0x00 (0002ms, 1361ms total)
T0E50 013:448 JLINK_ReadMem (0x40013C00, 0x0004 Bytes, ...) -- CPU is running -- CPU_ReadMem(4 bytes @ 0x40013C00) -- Data:  00 00 00 00  returns 0x00 (0002ms, 1363ms total)
T0E50 013:450 JLINK_ReadMem (0x40013C00, 0x0004 Bytes, ...) -- CPU is running -- CPU_ReadMem(4 bytes @ 0x40013C00) -- Data:  00 00 00 00  returns 0x00 (0002ms, 1365ms total)
T0E50 013:452 JLINK_ReadMem (0x40013C00, 0x0004 Bytes, ...) -- CPU is running -- CPU_ReadMem(4 bytes @ 0x40013C00) -- Data:  00 00 00 00  returns 0x00 (0002ms, 1367ms total)
T0E50 013:454 JLINK_ReadMem (0x40013C00, 0x0004 Bytes, ...) -- CPU is running -- CPU_ReadMem(4 bytes @ 0x40013C00) -- Data:  00 00 00 00  returns 0x00 (0002ms, 1369ms total)
T0E50 013:456 JLINK_ReadMem (0x40013C00, 0x0004 Bytes, ...) -- CPU is running -- CPU_ReadMem(4 bytes @ 0x40013C00) -- Data:  00 00 00 00  returns 0x00 (0002ms, 1371ms total)
T0E50 013:458 JLINK_ReadMem (0x40013C00, 0x0004 Bytes, ...) -- CPU is running -- CPU_ReadMem(4 bytes @ 0x40013C00) -- Data:  00 00 00 00  returns 0x00 (0002ms, 1373ms total)
T0E50 013:460 JLINK_ReadMem (0x40013C00, 0x0004 Bytes, ...) -- CPU is running -- CPU_ReadMem(4 bytes @ 0x40013C00) -- Data:  00 00 00 00  returns 0x00 (0002ms, 1375ms total)
T0E50 013:462 JLINK_ReadMem (0x40013C00, 0x0004 Bytes, ...) -- CPU is running -- CPU_ReadMem(4 bytes @ 0x40013C00) -- Data:  00 00 00 00  returns 0x00 (0002ms, 1377ms total)
T0E50 013:464 JLINK_ReadMem (0x40013C00, 0x0004 Bytes, ...) -- CPU is running -- CPU_ReadMem(4 bytes @ 0x40013C00) -- Data:  00 00 00 00  returns 0x00 (0002ms, 1379ms total)
T0E50 013:466 JLINK_ReadMem (0x40013C00, 0x0004 Bytes, ...) -- CPU is running -- CPU_ReadMem(4 bytes @ 0x40013C00) -- Data:  00 00 00 00  returns 0x00 (0002ms, 1381ms total)
T0E50 013:468 JLINK_ReadMem (0x40013C00, 0x0004 Bytes, ...) -- CPU is running -- CPU_ReadMem(4 bytes @ 0x40013C00) -- Data:  00 00 00 00  returns 0x00 (0002ms, 1383ms total)
T0E50 013:470 JLINK_ReadMem (0x40013C00, 0x0004 Bytes, ...) -- CPU is running -- CPU_ReadMem(4 bytes @ 0x40013C00) -- Data:  00 00 00 00  returns 0x00 (0002ms, 1385ms total)
T0E50 013:472 JLINK_ReadMem (0x40013C00, 0x0004 Bytes, ...) -- CPU is running -- CPU_ReadMem(4 bytes @ 0x40013C00) -- Data:  00 00 00 00  returns 0x00 (0002ms, 1387ms total)
T0E50 013:474 JLINK_ReadMem (0x40013C00, 0x0004 Bytes, ...) -- CPU is running -- CPU_ReadMem(4 bytes @ 0x40013C00) -- Data:  00 00 00 00  returns 0x00 (0002ms, 1389ms total)
T0BC0 013:485 JLINK_IsHalted()  returns FALSE (0002ms, 1391ms total)
T0BC0 013:587 JLINK_IsHalted()  returns FALSE (0001ms, 1390ms total)
T0BC0 013:688 JLINK_IsHalted()  returns FALSE (0001ms, 1390ms total)
T0BC0 013:789 JLINK_IsHalted()  returns FALSE (0001ms, 1390ms total)
T0BC0 013:890 JLINK_IsHalted()  returns FALSE (0002ms, 1391ms total)
T0BC0 013:992 JLINK_ReadMemU32(0xE0001004, 0x0001 Items, ...) -- CPU is running -- CPU_ReadMem(4 bytes @ 0xE0001004) -- Data:  AD 89 A3 2B  returns 0x01 (0001ms, 1390ms total)
T0E50 013:993 JLINK_ReadMem (0x40013C00, 0x0014 Bytes, ...) -- CPU is running -- CPU_ReadMem(20 bytes @ 0x40013C00) -- Data:  00 00 00 00 00 00 00 00 02 00 00 00 00 00 00 00 ...  returns 0x00 (0002ms, 1392ms total)
T0E50 013:995 JLINK_ReadMem (0x40013C14, 0x0004 Bytes, ...) -- CPU is running -- CPU_ReadMem(4 bytes @ 0x40013C14) -- Data:  00 00 00 00  returns 0x00 (0002ms, 1394ms total)
T0BC0 013:998 JLINK_IsHalted()  returns FALSE (0002ms, 1396ms total)
T0BC0 014:100 JLINK_IsHalted()  returns FALSE (0002ms, 1396ms total)
T0BC0 014:202 JLINK_IsHalted()  returns FALSE (0002ms, 1396ms total)
T0BC0 014:304 JLINK_IsHalted()  returns FALSE (0001ms, 1395ms total)
T0BC0 014:405 JLINK_IsHalted()  returns FALSE (0001ms, 1395ms total)
T0BC0 014:506 JLINK_ReadMemU32(0xE0001004, 0x0001 Items, ...) -- CPU is running -- CPU_ReadMem(4 bytes @ 0xE0001004) -- Data:  FC AC CA 30  returns 0x01 (0002ms, 1396ms total)
T0E50 014:508 JLINK_ReadMem (0x40013C00, 0x0014 Bytes, ...) -- CPU is running -- CPU_ReadMem(20 bytes @ 0x40013C00) -- Data:  02 00 00 00 00 00 00 00 02 00 00 00 00 00 00 00 ...  returns 0x00 (0002ms, 1398ms total)
T0E50 014:510 JLINK_ReadMem (0x40013C14, 0x0004 Bytes, ...) -- CPU is running -- CPU_ReadMem(4 bytes @ 0x40013C14) -- Data:  00 00 00 00  returns 0x00 (0002ms, 1400ms total)
T0E50 014:512 JLINK_ReadMem (0x40013C00, 0x0004 Bytes, ...) -- CPU is running -- CPU_ReadMem(4 bytes @ 0x40013C00) -- Data:  02 00 00 00  returns 0x00 (0002ms, 1402ms total)
T0E50 014:514 JLINK_ReadMem (0x40013C00, 0x0004 Bytes, ...) -- CPU is running -- CPU_ReadMem(4 bytes @ 0x40013C00) -- Data:  02 00 00 00  returns 0x00 (0002ms, 1404ms total)
T0E50 014:516 JLINK_ReadMem (0x40013C00, 0x0004 Bytes, ...) -- CPU is running -- CPU_ReadMem(4 bytes @ 0x40013C00) -- Data:  02 00 00 00  returns 0x00 (0002ms, 1406ms total)
T0E50 014:518 JLINK_ReadMem (0x40013C00, 0x0004 Bytes, ...) -- CPU is running -- CPU_ReadMem(4 bytes @ 0x40013C00) -- Data:  02 00 00 00  returns 0x00 (0002ms, 1408ms total)
T0E50 014:520 JLINK_ReadMem (0x40013C00, 0x0004 Bytes, ...) -- CPU is running -- CPU_ReadMem(4 bytes @ 0x40013C00) -- Data:  02 00 00 00  returns 0x00 (0002ms, 1410ms total)
T0E50 014:522 JLINK_ReadMem (0x40013C00, 0x0004 Bytes, ...) -- CPU is running -- CPU_ReadMem(4 bytes @ 0x40013C00) -- Data:  02 00 00 00  returns 0x00 (0002ms, 1412ms total)
T0E50 014:524 JLINK_ReadMem (0x40013C00, 0x0004 Bytes, ...) -- CPU is running -- CPU_ReadMem(4 bytes @ 0x40013C00) -- Data:  02 00 00 00  returns 0x00 (0002ms, 1414ms total)
T0E50 014:526 JLINK_ReadMem (0x40013C00, 0x0004 Bytes, ...) -- CPU is running -- CPU_ReadMem(4 bytes @ 0x40013C00) -- Data:  02 00 00 00  returns 0x00 (0002ms, 1416ms total)
T0E50 014:528 JLINK_ReadMem (0x40013C00, 0x0004 Bytes, ...) -- CPU is running -- CPU_ReadMem(4 bytes @ 0x40013C00) -- Data:  02 00 00 00  returns 0x00 (0002ms, 1418ms total)
T0E50 014:530 JLINK_ReadMem (0x40013C00, 0x0004 Bytes, ...) -- CPU is running -- CPU_ReadMem(4 bytes @ 0x40013C00) -- Data:  02 00 00 00  returns 0x00 (0002ms, 1420ms total)
T0E50 014:532 JLINK_ReadMem (0x40013C00, 0x0004 Bytes, ...) -- CPU is running -- CPU_ReadMem(4 bytes @ 0x40013C00) -- Data:  00 00 00 00  returns 0x00 (0002ms, 1422ms total)
T0E50 014:534 JLINK_ReadMem (0x40013C00, 0x0004 Bytes, ...) -- CPU is running -- CPU_ReadMem(4 bytes @ 0x40013C00) -- Data:  00 00 00 00  returns 0x00 (0002ms, 1424ms total)
T0E50 014:536 JLINK_ReadMem (0x40013C00, 0x0004 Bytes, ...) -- CPU is running -- CPU_ReadMem(4 bytes @ 0x40013C00) -- Data:  00 00 00 00  returns 0x00 (0002ms, 1426ms total)
T0E50 014:538 JLINK_ReadMem (0x40013C00, 0x0004 Bytes, ...) -- CPU is running -- CPU_ReadMem(4 bytes @ 0x40013C00) -- Data:  00 00 00 00  returns 0x00 (0002ms, 1428ms total)
T0E50 014:540 JLINK_ReadMem (0x40013C00, 0x0004 Bytes, ...) -- CPU is running -- CPU_ReadMem(4 bytes @ 0x40013C00) -- Data:  00 00 00 00  returns 0x00 (0002ms, 1430ms total)
T0E50 014:542 JLINK_ReadMem (0x40013C00, 0x0004 Bytes, ...) -- CPU is running -- CPU_ReadMem(4 bytes @ 0x40013C00) -- Data:  00 00 00 00  returns 0x00 (0002ms, 1432ms total)
T0E50 014:544 JLINK_ReadMem (0x40013C00, 0x0004 Bytes, ...) -- CPU is running -- CPU_ReadMem(4 bytes @ 0x40013C00) -- Data:  00 00 00 00  returns 0x00 (0002ms, 1434ms total)
T0E50 014:546 JLINK_ReadMem (0x40013C00, 0x0004 Bytes, ...) -- CPU is running -- CPU_ReadMem(4 bytes @ 0x40013C00) -- Data:  00 00 00 00  returns 0x00 (0002ms, 1436ms total)
T0E50 014:548 JLINK_ReadMem (0x40013C00, 0x0004 Bytes, ...) -- CPU is running -- CPU_ReadMem(4 bytes @ 0x40013C00) -- Data:  00 00 00 00  returns 0x00 (0002ms, 1438ms total)
T0E50 014:550 JLINK_ReadMem (0x40013C00, 0x0004 Bytes, ...) -- CPU is running -- CPU_ReadMem(4 bytes @ 0x40013C00) -- Data:  00 00 00 00  returns 0x00 (0002ms, 1440ms total)
T0E50 014:552 JLINK_ReadMem (0x40013C00, 0x0004 Bytes, ...) -- CPU is running -- CPU_ReadMem(4 bytes @ 0x40013C00) -- Data:  00 00 00 00  returns 0x00 (0002ms, 1442ms total)
T0E50 014:554 JLINK_ReadMem (0x40013C00, 0x0004 Bytes, ...) -- CPU is running -- CPU_ReadMem(4 bytes @ 0x40013C00) -- Data:  00 00 00 00  returns 0x00 (0002ms, 1444ms total)
T0E50 014:556 JLINK_ReadMem (0x40013C00, 0x0004 Bytes, ...) -- CPU is running -- CPU_ReadMem(4 bytes @ 0x40013C00) -- Data:  00 00 00 00  returns 0x00 (0002ms, 1446ms total)
T0E50 014:558 JLINK_ReadMem (0x40013C00, 0x0004 Bytes, ...) -- CPU is running -- CPU_ReadMem(4 bytes @ 0x40013C00) -- Data:  00 00 00 00  returns 0x00 (0002ms, 1448ms total)
T0BC0 014:568 JLINK_IsHalted()  returns FALSE (0002ms, 1450ms total)
T0BC0 014:670 JLINK_IsHalted()  returns FALSE (0001ms, 1449ms total)
T0BC0 014:771 JLINK_IsHalted()  returns FALSE (0001ms, 1449ms total)
T0BC0 014:872 JLINK_IsHalted()  returns FALSE (0003ms, 1451ms total)
T0BC0 014:975 JLINK_IsHalted()  returns FALSE (0001ms, 1449ms total)
T0BC0 015:076 JLINK_ReadMemU32(0xE0001004, 0x0001 Items, ...) -- CPU is running -- CPU_ReadMem(4 bytes @ 0xE0001004) -- Data:  B0 ED 7F 36  returns 0x01 (0002ms, 1450ms total)
T0E50 015:078 JLINK_ReadMem (0x40013C00, 0x0014 Bytes, ...) -- CPU is running -- CPU_ReadMem(20 bytes @ 0x40013C00) -- Data:  00 00 00 00 00 00 00 00 02 00 00 00 00 00 00 00 ...  returns 0x00 (0003ms, 1453ms total)
T0E50 015:081 JLINK_ReadMem (0x40013C14, 0x0004 Bytes, ...) -- CPU is running -- CPU_ReadMem(4 bytes @ 0x40013C14) -- Data:  00 00 00 00  returns 0x00 (0002ms, 1455ms total)
T0BC0 015:084 JLINK_IsHalted()  returns FALSE (0001ms, 1456ms total)
T0BC0 015:185 JLINK_IsHalted()  returns FALSE (0001ms, 1456ms total)
T0BC0 015:286 JLINK_IsHalted()  returns FALSE (0001ms, 1456ms total)
T0BC0 015:387 JLINK_IsHalted()  returns FALSE (0002ms, 1457ms total)
T0BC0 015:489 JLINK_IsHalted()  returns FALSE (0001ms, 1456ms total)
T0BC0 015:590 JLINK_ReadMemU32(0xE0001004, 0x0001 Items, ...) -- CPU is running -- CPU_ReadMem(4 bytes @ 0xE0001004) -- Data:  64 7E A4 3B  returns 0x01 (0001ms, 1456ms total)
T0E50 015:591 JLINK_ReadMem (0x40013C00, 0x0014 Bytes, ...) -- CPU is running -- CPU_ReadMem(20 bytes @ 0x40013C00) -- Data:  00 00 00 00 00 00 00 00 02 00 00 00 00 00 00 00 ...  returns 0x00 (0002ms, 1458ms total)
T0E50 015:593 JLINK_ReadMem (0x40013C14, 0x0004 Bytes, ...) -- CPU is running -- CPU_ReadMem(4 bytes @ 0x40013C14) -- Data:  00 00 00 00  returns 0x00 (0002ms, 1460ms total)
T0BC0 015:596 JLINK_IsHalted()  returns FALSE (0002ms, 1462ms total)
T0BC0 015:698 JLINK_IsHalted()  returns FALSE (0001ms, 1461ms total)
T0BC0 015:799 JLINK_IsHalted()  returns FALSE (0002ms, 1462ms total)
T0BC0 015:901 JLINK_IsHalted()  returns FALSE (0002ms, 1462ms total)
T0BC0 016:003 JLINK_IsHalted()  returns FALSE (0001ms, 1461ms total)
T0BC0 016:104 JLINK_ReadMemU32(0xE0001004, 0x0001 Items, ...) -- CPU is running -- CPU_ReadMem(4 bytes @ 0xE0001004) -- Data:  A0 9E CB 40  returns 0x01 (0002ms, 1462ms total)
T0E50 016:106 JLINK_ReadMem (0x40013C00, 0x0014 Bytes, ...) -- CPU is running -- CPU_ReadMem(20 bytes @ 0x40013C00) -- Data:  00 00 00 00 00 00 00 00 02 00 00 00 00 00 00 00 ...  returns 0x00 (0003ms, 1465ms total)
T0E50 016:109 JLINK_ReadMem (0x40013C14, 0x0004 Bytes, ...) -- CPU is running -- CPU_ReadMem(4 bytes @ 0x40013C14) -- Data:  00 00 00 00  returns 0x00 (0002ms, 1467ms total)
T0BC0 016:112 JLINK_IsHalted()  returns FALSE (0001ms, 1468ms total)
T0BC0 016:213 JLINK_IsHalted()  returns FALSE (0001ms, 1468ms total)
T0BC0 016:314 JLINK_IsHalted()  returns FALSE (0001ms, 1468ms total)
T0BC0 016:415 JLINK_IsHalted()  returns FALSE (0001ms, 1468ms total)
T0BC0 016:516 JLINK_IsHalted()  returns FALSE (0001ms, 1468ms total)
T0BC0 016:617 JLINK_ReadMemU32(0xE0001004, 0x0001 Items, ...) -- CPU is running -- CPU_ReadMem(4 bytes @ 0xE0001004) -- Data:  18 3F ED 45  returns 0x01 (0001ms, 1468ms total)
T0E50 016:618 JLINK_ReadMem (0x40013C00, 0x0014 Bytes, ...) -- CPU is running -- CPU_ReadMem(20 bytes @ 0x40013C00) -- Data:  00 00 00 00 00 00 00 00 02 00 00 00 00 00 00 00 ...  returns 0x00 (0002ms, 1470ms total)
T0E50 016:620 JLINK_ReadMem (0x40013C14, 0x0004 Bytes, ...) -- CPU is running -- CPU_ReadMem(4 bytes @ 0x40013C14) -- Data:  00 00 00 00  returns 0x00 (0002ms, 1472ms total)
T0BC0 016:623 JLINK_IsHalted()  returns FALSE (0002ms, 1474ms total)
T0BC0 016:725 JLINK_IsHalted()  returns FALSE (0002ms, 1474ms total)
T0BC0 016:827 JLINK_IsHalted()  returns FALSE (0001ms, 1473ms total)
T0BC0 016:928 JLINK_IsHalted()  returns FALSE (0003ms, 1475ms total)
T0BC0 017:031 JLINK_IsHalted()  returns FALSE (0001ms, 1473ms total)
T0BC0 017:132 JLINK_ReadMemU32(0xE0001004, 0x0001 Items, ...) -- CPU is running -- CPU_ReadMem(4 bytes @ 0xE0001004) -- Data:  07 73 15 4B  returns 0x01 (0001ms, 1473ms total)
T0E50 017:133 JLINK_ReadMem (0x40013C00, 0x0014 Bytes, ...) -- CPU is running -- CPU_ReadMem(20 bytes @ 0x40013C00) -- Data:  00 00 00 00 00 00 00 00 02 00 00 00 00 00 00 00 ...  returns 0x00 (0002ms, 1475ms total)
T0E50 017:135 JLINK_ReadMem (0x40013C14, 0x0004 Bytes, ...) -- CPU is running -- CPU_ReadMem(4 bytes @ 0x40013C14) -- Data:  00 00 00 00  returns 0x00 (0002ms, 1477ms total)
T0BC0 017:138 JLINK_IsHalted()  returns FALSE (0001ms, 1478ms total)
T0BC0 017:239 JLINK_IsHalted()  returns FALSE (0001ms, 1478ms total)
T0BC0 017:340 JLINK_IsHalted()  returns FALSE (0002ms, 1479ms total)
T0BC0 017:442 JLINK_IsHalted()  returns FALSE (0001ms, 1478ms total)
T0BC0 017:543 JLINK_IsHalted()  returns FALSE (0001ms, 1478ms total)
T0BC0 017:644 JLINK_ReadMemU32(0xE0001004, 0x0001 Items, ...) -- CPU is running -- CPU_ReadMem(4 bytes @ 0xE0001004) -- Data:  1C 27 36 50  returns 0x01 (0001ms, 1478ms total)
T0E50 017:647 JLINK_ReadMem (0x40013C00, 0x0014 Bytes, ...) -- CPU is running -- CPU_ReadMem(20 bytes @ 0x40013C00) -- Data:  00 00 00 00 00 00 00 00 02 00 00 00 00 00 00 00 ...  returns 0x00 (0002ms, 1480ms total)
T0E50 017:649 JLINK_ReadMem (0x40013C14, 0x0004 Bytes, ...) -- CPU is running -- CPU_ReadMem(4 bytes @ 0x40013C14) -- Data:  00 00 00 00  returns 0x00 (0002ms, 1482ms total)
T0BC0 017:652 JLINK_IsHalted()  returns FALSE (0001ms, 1483ms total)
T0BC0 017:753 JLINK_IsHalted()  returns FALSE (0001ms, 1483ms total)
T0BC0 017:854 JLINK_IsHalted()  returns FALSE (0001ms, 1483ms total)
T0BC0 017:955 JLINK_IsHalted()  returns FALSE (0002ms, 1484ms total)
T0BC0 018:057 JLINK_IsHalted()  returns FALSE (0001ms, 1483ms total)
T0BC0 018:158 JLINK_IsHalted()  returns FALSE (0001ms, 1483ms total)
T0BC0 018:259 JLINK_ReadMemU32(0xE0001004, 0x0001 Items, ...) -- CPU is running -- CPU_ReadMem(4 bytes @ 0xE0001004) -- Data:  A9 C5 5E 56  returns 0x01 (0001ms, 1483ms total)
T0E50 018:263 JLINK_ReadMem (0x40013C00, 0x0014 Bytes, ...) -- CPU is running -- CPU_ReadMem(20 bytes @ 0x40013C00) -- Data:  00 00 00 00 00 00 00 00 02 00 00 00 00 00 00 00 ...  returns 0x00 (0003ms, 1486ms total)
T0E50 018:266 JLINK_ReadMem (0x40013C14, 0x0004 Bytes, ...) -- CPU is running -- CPU_ReadMem(4 bytes @ 0x40013C14) -- Data:  00 00 00 00  returns 0x00 (0002ms, 1488ms total)
T0BC0 018:269 JLINK_IsHalted()  returns FALSE (0001ms, 1489ms total)
T0BC0 018:370 JLINK_IsHalted()  returns FALSE (0001ms, 1489ms total)
T0BC0 018:471 JLINK_IsHalted()  returns FALSE (0001ms, 1489ms total)
T0BC0 018:572 JLINK_IsHalted()  returns FALSE (0001ms, 1489ms total)
T0BC0 018:673 JLINK_IsHalted()  returns FALSE (0003ms, 1491ms total)
T0BC0 018:776 JLINK_ReadMemU32(0xE0001004, 0x0001 Items, ...) -- CPU is running -- CPU_ReadMem(4 bytes @ 0xE0001004) -- Data:  34 23 8C 5B  returns 0x01 (0001ms, 1489ms total)
